
T133C 000:843 SEGGER J-Link V4.86b Log File (0001ms, 0431ms total)
T133C 000:843 DLL Compiled: Jun 27 2014 20:11:00 (0001ms, 0431ms total)
T133C 000:843 Logging started @ 2017-05-19 13:36 (0001ms, 0431ms total)
T133C 000:844 JLINK_SetWarnOutHandler(...) (0000ms, 0431ms total)
T133C 000:844 JLINK_OpenEx(...)
Firmware: J-Link ARM V8 compiled Nov 25 2013 19:20:08
Hardware: V8.00
S/N: 12345678
Feature(s): RDI,FlashDL,FlashBP,JFlash,GDBFull  returns O.K. (0407ms, 0838ms total)
T133C 001:251 JLINK_SetErrorOutHandler(...) (0000ms, 0838ms total)
T133C 001:251 JLINK_ExecCommand("ProjectFile = "E:\prj\ucos\src\now\prj\JLinkSettings.ini"", ...)  returns 0x00 (0002ms, 0840ms total)
T133C 001:253 JLINK_ExecCommand("Device = LPC1778", ...)Device "LPC1778" selected (512 KB flash, 64 KB RAM).  returns 0x00 (0003ms, 0843ms total)
T133C 001:256 JLINK_ExecCommand("DisableConnectionTimeout", ...)  returns 0x01 (0000ms, 0843ms total)
T133C 001:256 JLINK_GetHardwareVersion()  returns 0x13880 (0000ms, 0843ms total)
T133C 001:256 JLINK_GetDLLVersion()  returns 48602 (0000ms, 0843ms total)
T133C 001:256 JLINK_GetFirmwareString(...) (0000ms, 0843ms total)
T133C 001:261 JLINK_GetDLLVersion()  returns 48602 (0000ms, 0843ms total)
T133C 001:261 JLINK_GetCompileDateTime() (0000ms, 0843ms total)
T133C 001:263 JLINK_GetFirmwareString(...) (0000ms, 0843ms total)
T133C 001:265 JLINK_GetHardwareVersion()  returns 0x13880 (0000ms, 0843ms total)
T133C 001:272 JLINK_TIF_Select(JLINKARM_TIF_JTAG)  returns 0x00 (0061ms, 0904ms total)
T133C 001:333 JLINK_SetSpeed(2000) (0010ms, 0914ms total)
T133C 001:343 JLINK_GetIdData(...) >0x2F8 JTAG>TotalIRLen = 4, IRPrint = 0x01 >0x30 JTAG> >0x210 JTAG> >0x70 JTAG> >0x40 JTAG> >0x40 JTAG> >0x40 JTAG> >0x48 JTAG> >0x78 JTAG> >0x40 JTAG> >0x30 JTAG> >0x40 JTAG> >0x40 JTAG> >0x30 JTAG> >0x40 JTAG> >0x48 JTAG>Found Cortex-M3 r2p0, Little endian. -- CPU_WriteMem(4 bytes @ 0xE0002000) -- CPU_ReadMem(4 bytes @ 0xE000EDF0) -- CPU_ReadMem(4 bytes @ 0xE0002000)FPUnit: 6 code (BP) slots and 2 literal slots -- CPU_ReadMem(4 bytes @ 0xE000EDFC)
 -- CPU_ReadMem(4 bytes @ 0xE0001000) -- CPU_WriteMem(4 bytes @ 0xE0001000) -- CPU_ReadMem(4 bytes @ 0xE00FF010)TPIU fitted. -- CPU_ReadMem(4 bytes @ 0xE00FF014)ETM fitted. -- CPU_ReadMem(4 bytes @ 0xE00FF018) ScanLen=4 NumDevices=1 aId[0]=0x4BA00477 aIrRead[0]=0 aScanLen[0]=0 aScanRead[0]=0 (0301ms, 1215ms total)
T133C 001:644 JLINK_JTAG_GetDeviceID(DeviceIndex = 0)  returns 0x4BA00477 (0000ms, 1215ms total)
T133C 001:644 JLINK_JTAG_GetDeviceInfo(DeviceIndex = 0)  returns 0x00 (0000ms, 1215ms total)
T133C 001:644 JLINK_GetDeviceFamily()  returns 3 (0000ms, 1215ms total)
T133C 001:645 JLINK_ReadMem (0xE00FFFF0, 0x0010 Bytes, ...) -- CPU is running -- CPU_ReadMem(16 bytes @ 0xE00FFFF0) - Data: 0D 00 00 00 10 00 00 00 05 00 00 00 B1 00 00 00  returns 0x00 (0020ms, 1235ms total)
T133C 001:665 JLINK_ReadMem (0xE00FFFD0, 0x0020 Bytes, ...) -- CPU is running -- CPU_ReadMem(32 bytes @ 0xE00FFFD0) - Data: 00 00 00 00 00 00 00 00 00 00 00 00 00 00 00 00 ...  returns 0x00 (0009ms, 1244ms total)
T133C 001:674 JLINK_ReadMem (0xE00FF000, 0x0018 Bytes, ...) -- CPU is running -- CPU_ReadMem(24 bytes @ 0xE00FF000) - Data: 03 F0 F0 FF 03 20 F0 FF 03 30 F0 FF 03 10 F0 FF ...  returns 0x00 (0010ms, 1254ms total)
T133C 001:684 JLINK_ReadMemU32(0xE000ED00, 0x0001 Items, ...) -- CPU is running -- CPU_ReadMem(4 bytes @ 0xE000ED00) - Data: 30 C2 2F 41  returns 0x01 (0010ms, 1264ms total)
T133C 001:694 JLINK_SetResetType(JLINKARM_RESET_TYPE_NORMAL)  returns JLINKARM_RESET_TYPE_HALT_WP (0000ms, 1264ms total)
T133C 001:694 JLINK_Reset() -- CPU is running -- CPU_WriteMem(4 bytes @ 0xE000EDF0) -- CPU is running -- CPU_WriteMem(4 bytes @ 0xE000EDFC) -- CPU is running -- CPU_WriteMem(4 bytes @ 0xE000ED0C) -- CPU is running -- CPU_ReadMem(4 bytes @ 0xE000EDF0) -- CPU is running -- CPU_ReadMem(4 bytes @ 0xE000EDF0) -- CPU is running -- CPU_WriteMem(4 bytes @ 0xE000EDF0) -- CPU is running -- CPU_WriteMem(4 bytes @ 0xE000EDFC) -- CPU is running -- CPU_ReadMem(4 bytes @ 0xE000EDF0) >0x78 JTAG> >0x40 JTAG> >0x30 JTAG>
 >0x40 JTAG> >0x48 JTAG> >0x40 JTAG> -- CPU_WriteMem(4 bytes @ 0xE000EDFC) -- CPU_WriteMem(4 bytes @ 0xE0001028) -- CPU_WriteMem(4 bytes @ 0xE0001038) -- CPU_WriteMem(4 bytes @ 0xE0001048) -- CPU_WriteMem(4 bytes @ 0xE0001058) -- CPU_WriteMem(4 bytes @ 0xE000EDFC) -- CPU_WriteMem(4 bytes @ 0xE0001028) -- CPU_WriteMem(4 bytes @ 0xE0001028) -- CPU_WriteMem(4 bytes @ 0xE000EDFC) -- CPU_WriteMem(4 bytes @ 0xE0001028) -- CPU_WriteMem(4 bytes @ 0xE0001028) -- CPU_WriteMem(4 bytes @ 0xE000EDFC)
 -- CPU_WriteMem(4 bytes @ 0xE0001028) -- CPU_WriteMem(4 bytes @ 0xE0001028) -- CPU_WriteMem(4 bytes @ 0xE000EDFC) -- CPU_WriteMem(4 bytes @ 0xE0001028) -- CPU_WriteMem(4 bytes @ 0xE0001028) -- CPU_WriteMem(4 bytes @ 0xE000EDFC) -- CPU_WriteMem(4 bytes @ 0xE0001050) -- CPU_WriteMem(4 bytes @ 0xE0001054) -- CPU_WriteMem(4 bytes @ 0xE0001058) -- CPU_WriteMem(4 bytes @ 0xE000EDFC) -- CPU_WriteMem(4 bytes @ 0xE0001058) -- CPU_ReadMem(4 bytes @ 0x00000004) -- CPU_ReadMem(4 bytes @ 0xE0002000)
 -- CPU_ReadMem(4 bytes @ 0xE0002008) -- CPU_ReadMem(4 bytes @ 0xE000200C) -- CPU_ReadMem(4 bytes @ 0xE0002010) -- CPU_ReadMem(4 bytes @ 0xE0002014) -- CPU_ReadMem(4 bytes @ 0xE0002018) -- CPU_ReadMem(4 bytes @ 0xE000201C) -- CPU_WriteMem(4 bytes @ 0xE0002000) -- CPU_WriteMem(4 bytes @ 0xE0002008) -- CPU_WriteMem(4 bytes @ 0xE000200C) -- CPU_WriteMem(4 bytes @ 0xE0002010) -- CPU_WriteMem(4 bytes @ 0xE0002014) -- CPU_WriteMem(4 bytes @ 0xE0002018) -- CPU_WriteMem(4 bytes @ 0xE000201C)
 -- CPU_WriteMem(4 bytes @ 0xE0002000) -- CPU_WriteMem(4 bytes @ 0xE0002008) -- CPU_WriteMem(4 bytes @ 0xE000200C) -- CPU_WriteMem(4 bytes @ 0xE0002010) -- CPU_WriteMem(4 bytes @ 0xE0002014) -- CPU_WriteMem(4 bytes @ 0xE0002018) -- CPU_WriteMem(4 bytes @ 0xE000201C) -- CPU_WriteMem(4 bytes @ 0xE0002000) -- CPU_ReadMem(4 bytes @ 0xE000EDFC) -- CPU_ReadMem(4 bytes @ 0xE0001000) (0954ms, 2218ms total)
T133C 002:658 JLINK_ReadReg(R15 (PC))  returns 0x00001C78 (0009ms, 2227ms total)
T133C 002:667 JLINK_ReadReg(XPSR)  returns 0x61000000 (0000ms, 2227ms total)
T133C 002:667 JLINK_Halt()  returns 0x00 (0000ms, 2227ms total)
T133C 002:667 JLINK_IsHalted()  returns TRUE (0000ms, 2227ms total)
T133C 002:667 JLINK_ReadMemU32(0xE000EDF0, 0x0001 Items, ...) -- CPU_ReadMem(4 bytes @ 0xE000EDF0) - Data: 03 00 03 00  returns 0x01 (0011ms, 2238ms total)
T133C 002:678 JLINK_WriteU32(0xE000EDF0, 0xA05F0003) -- CPU_WriteMem(4 bytes @ 0xE000EDF0)  returns 0x00 (0010ms, 2248ms total)
T133C 002:688 JLINK_WriteU32(0xE000EDFC, 0x01000000) -- CPU_WriteMem(4 bytes @ 0xE000EDFC)  returns 0x00 (0010ms, 2258ms total)
T133C 002:702 JLINK_GetHWStatus(...)  returns 0x00 (0010ms, 2268ms total)
T133C 002:715 JLINK_GetNumBPUnits(Type = 0xFFFFFF00)  returns 0x06 (0000ms, 2268ms total)
T133C 002:715 JLINK_GetNumBPUnits(Type = 0xF0)  returns 0x2000 (0000ms, 2268ms total)
T133C 002:715 JLINK_GetNumWPUnits()  returns 0x04 (0000ms, 2268ms total)
T133C 002:718 JLINK_GetSpeed()  returns 0x7D0 (0000ms, 2268ms total)
T133C 002:720 JLINK_ReadMemU32(0xE000E004, 0x0001 Items, ...) -- CPU_ReadMem(4 bytes @ 0xE000E004) - Data: 01 00 00 00  returns 0x01 (0008ms, 2276ms total)
T133C 002:728 JLINK_ReadMemU32(0xE000E004, 0x0001 Items, ...) -- CPU_ReadMem(4 bytes @ 0xE000E004) - Data: 01 00 00 00  returns 0x01 (0010ms, 2286ms total)
T133C 002:738 JLINK_WriteMem(0xE0001000, 0x001C Bytes, ...) - Data: 01 00 00 00 00 00 00 00 00 00 00 00 00 00 00 00 ... -- CPU_WriteMem(28 bytes @ 0xE0001000)  returns 0x1C (0010ms, 2296ms total)
T133C 002:748 JLINK_ReadMem (0xE0001000, 0x001C Bytes, ...) -- CPU_ReadMem(28 bytes @ 0xE0001000) - Data: 01 00 00 40 00 00 00 00 00 00 00 00 00 00 00 00 ...  returns 0x00 (0010ms, 2306ms total)
T133C 002:758 JLINK_ReadReg(R15 (PC))  returns 0x00001C78 (0000ms, 2306ms total)
T133C 002:758 JLINK_ReadReg(XPSR)  returns 0x61000000 (0000ms, 2306ms total)
T133C 002:777 JLINK_WriteU8(0x400FC040, 0x01) -- CPU_WriteMem(1 bytes @ 0x400FC040)  returns 0x00 (0011ms, 2317ms total)
T133C 002:916 JLINK_SetResetType(JLINKARM_RESET_TYPE_NORMAL)  returns JLINKARM_RESET_TYPE_HALT_WP (0000ms, 2317ms total)
T133C 002:916 JLINK_Reset() -- CPU_WriteMem(4 bytes @ 0xE000EDF0) -- CPU_WriteMem(4 bytes @ 0xE000EDFC) -- CPU_WriteMem(4 bytes @ 0xE000ED0C) -- CPU_ReadMem(4 bytes @ 0xE000EDF0) -- CPU_ReadMem(4 bytes @ 0xE000EDF0) -- CPU_WriteMem(4 bytes @ 0xE000EDF0) -- CPU_WriteMem(4 bytes @ 0xE000EDFC) -- CPU is running -- CPU_ReadMem(4 bytes @ 0xE000EDF0) >0x78 JTAG> >0x40 JTAG> >0x30 JTAG> >0x40 JTAG> >0x48 JTAG> >0x40 JTAG> -- CPU_WriteMem(4 bytes @ 0xE000EDFC) -- CPU_WriteMem(4 bytes @ 0xE0001028)
 -- CPU_WriteMem(4 bytes @ 0xE0001038) -- CPU_WriteMem(4 bytes @ 0xE0001048) -- CPU_WriteMem(4 bytes @ 0xE0001058) -- CPU_WriteMem(4 bytes @ 0xE000EDFC) -- CPU_WriteMem(4 bytes @ 0xE000EDFC) -- CPU_WriteMem(4 bytes @ 0xE000EDFC) -- CPU_WriteMem(4 bytes @ 0xE000EDFC) -- CPU_WriteMem(4 bytes @ 0xE000EDFC) -- CPU_WriteMem(4 bytes @ 0xE0001050) -- CPU_WriteMem(4 bytes @ 0xE0001054) -- CPU_WriteMem(4 bytes @ 0xE0001058) -- CPU_WriteMem(4 bytes @ 0xE000EDFC) -- CPU_WriteMem(4 bytes @ 0xE0001058)
 -- CPU_ReadMem(4 bytes @ 0x00000004) -- CPU_ReadMem(4 bytes @ 0xE0002000) -- CPU_ReadMem(4 bytes @ 0xE0002008) -- CPU_ReadMem(4 bytes @ 0xE000200C) -- CPU_ReadMem(4 bytes @ 0xE0002010) -- CPU_ReadMem(4 bytes @ 0xE0002014) -- CPU_ReadMem(4 bytes @ 0xE0002018) -- CPU_ReadMem(4 bytes @ 0xE000201C) -- CPU_WriteMem(4 bytes @ 0xE0002000) -- CPU_WriteMem(4 bytes @ 0xE0002008) -- CPU_WriteMem(4 bytes @ 0xE000200C) -- CPU_WriteMem(4 bytes @ 0xE0002010) -- CPU_WriteMem(4 bytes @ 0xE0002014)
 -- CPU_WriteMem(4 bytes @ 0xE0002018) -- CPU_WriteMem(4 bytes @ 0xE000201C) -- CPU_WriteMem(4 bytes @ 0xE0002000) -- CPU_WriteMem(4 bytes @ 0xE0002008) -- CPU_WriteMem(4 bytes @ 0xE000200C) -- CPU_WriteMem(4 bytes @ 0xE0002010) -- CPU_WriteMem(4 bytes @ 0xE0002014) -- CPU_WriteMem(4 bytes @ 0xE0002018) -- CPU_WriteMem(4 bytes @ 0xE000201C) -- CPU_WriteMem(4 bytes @ 0xE0002000) -- CPU_ReadMem(4 bytes @ 0xE000EDFC) -- CPU_ReadMem(4 bytes @ 0xE0001000) (0862ms, 3179ms total)
T133C 003:797 JLINK_ReadReg(R15 (PC))  returns 0x00001C78 (0010ms, 3189ms total)
T133C 003:807 JLINK_ReadReg(XPSR)  returns 0x61000000 (0000ms, 3189ms total)
T133C 005:770 JLINK_ReadMem (0x20098060, 0x0020 Bytes, ...) -- CPU_ReadMem(32 bytes @ 0x20098060) - Data: 00 00 00 00 00 00 00 00 00 00 00 00 00 00 00 00 ...  returns 0x00 (0018ms, 3207ms total)
T2790 021:934 JLINK_SetBPEx(Addr = 0x000041B8, Type = 0xFFFFFFF2)  returns 0x00000001 (0007ms, 3214ms total)
T2790 021:941 JLINK_SetBPEx(Addr = 0x00001C30, Type = 0xFFFFFFF2)  returns 0x00000002 (0000ms, 3214ms total)
T2790 021:941 JLINK_Go() -- CPU_WriteMem(4 bytes @ 0xE0002008) -- CPU_WriteMem(4 bytes @ 0xE000200C) -- CPU_WriteMem(4 bytes @ 0xE0002010) -- CPU_WriteMem(4 bytes @ 0xE0002014) -- CPU_WriteMem(4 bytes @ 0xE0002018) -- CPU_WriteMem(4 bytes @ 0xE000201C) -- CPU_WriteMem(4 bytes @ 0xE0001004) (0065ms, 3279ms total)
T2790 022:107 JLINK_IsHalted()  returns TRUE (0030ms, 3309ms total)
T2790 022:137 JLINK_Halt()  returns 0x00 (0000ms, 3279ms total)
T2790 022:137 JLINK_IsHalted()  returns TRUE (0000ms, 3279ms total)
T2790 022:137 JLINK_IsHalted()  returns TRUE (0000ms, 3279ms total)
T2790 022:137 JLINK_IsHalted()  returns TRUE (0000ms, 3279ms total)
T2790 022:137 JLINK_ReadReg(R15 (PC))  returns 0x000041B8 (0000ms, 3279ms total)
T2790 022:137 JLINK_ReadReg(XPSR)  returns 0x61000000 (0001ms, 3280ms total)
T2790 022:138 JLINK_ClrBPEx(BPHandle = 0x00000001)  returns 0x00 (0000ms, 3280ms total)
T2790 022:138 JLINK_ClrBPEx(BPHandle = 0x00000002)  returns 0x00 (0000ms, 3280ms total)
T2790 022:138 JLINK_ReadMemU32(0xE000ED30, 0x0001 Items, ...) -- CPU_ReadMem(4 bytes @ 0xE000ED30) - Data: 03 00 00 00  returns 0x01 (0008ms, 3288ms total)
T2790 022:146 JLINK_ReadMemU32(0xE0001028, 0x0001 Items, ...) -- CPU_ReadMem(4 bytes @ 0xE0001028) - Data: 00 00 00 00  returns 0x01 (0010ms, 3298ms total)
T2790 022:156 JLINK_ReadMemU32(0xE0001038, 0x0001 Items, ...) -- CPU_ReadMem(4 bytes @ 0xE0001038) - Data: 00 02 00 00  returns 0x01 (0011ms, 3309ms total)
T2790 022:167 JLINK_ReadMemU32(0xE0001048, 0x0001 Items, ...) -- CPU_ReadMem(4 bytes @ 0xE0001048) - Data: 00 00 00 00  returns 0x01 (0020ms, 3329ms total)
T2790 022:187 JLINK_ReadMemU32(0xE0001058, 0x0001 Items, ...) -- CPU_ReadMem(4 bytes @ 0xE0001058) - Data: 00 00 00 01  returns 0x01 (0010ms, 3339ms total)
T2790 022:197 JLINK_ReadReg(R0)  returns 0x000041B9 (0000ms, 3339ms total)
T2790 022:197 JLINK_ReadReg(R1)  returns 0x1000F438 (0000ms, 3339ms total)
T2790 022:197 JLINK_ReadReg(R2)  returns 0x00000000 (0000ms, 3339ms total)
T2790 022:197 JLINK_ReadReg(R3)  returns 0x000092C3 (0000ms, 3339ms total)
T2790 022:197 JLINK_ReadReg(R4)  returns 0x0000A1F4 (0000ms, 3339ms total)
T2790 022:197 JLINK_ReadReg(R5)  returns 0x0000A1F4 (0000ms, 3339ms total)
T2790 022:197 JLINK_ReadReg(R6)  returns 0x12345678 (0000ms, 3339ms total)
T2790 022:197 JLINK_ReadReg(R7)  returns 0x07070707 (0000ms, 3339ms total)
T2790 022:197 JLINK_ReadReg(R8)  returns 0x08080808 (0000ms, 3339ms total)
T2790 022:197 JLINK_ReadReg(R9)  returns 0x09090909 (0000ms, 3339ms total)
T2790 022:197 JLINK_ReadReg(R10)  returns 0x10101010 (0000ms, 3339ms total)
T2790 022:197 JLINK_ReadReg(R11)  returns 0x11111111 (0000ms, 3339ms total)
T2790 022:197 JLINK_ReadReg(R12)  returns 0x12121212 (0000ms, 3339ms total)
T2790 022:197 JLINK_ReadReg(R13 (SP))  returns 0x1000F438 (0000ms, 3339ms total)
T2790 022:197 JLINK_ReadReg(R14)  returns 0x000090E1 (0000ms, 3339ms total)
T2790 022:198 JLINK_ReadReg(R15 (PC))  returns 0x000041B8 (0000ms, 3340ms total)
T2790 022:198 JLINK_ReadReg(XPSR)  returns 0x61000000 (0000ms, 3340ms total)
T2790 022:198 JLINK_ReadReg(MSP)  returns 0x1000F438 (0000ms, 3340ms total)
T2790 022:198 JLINK_ReadReg(PSP)  returns 0x1000E1A8 (0000ms, 3340ms total)
T2790 022:198 JLINK_ReadReg(CFBP)  returns 0x00000000 (0000ms, 3340ms total)
T133C 022:201 JLINK_ReadMem (0x1000F430, 0x0002 Bytes, ...) -- CPU_ReadMem(64 bytes @ 0x1000F400) -- Updating C cache (64 bytes @ 0x1000F400) -- Read from C cache (2 bytes @ 0x1000F430) - Data: 00 00  returns 0x00 (0010ms, 3350ms total)
T133C 022:310 JLINK_ReadMem (0x20098060, 0x0020 Bytes, ...) -- CPU_ReadMem(32 bytes @ 0x20098060) - Data: 00 00 00 00 00 00 00 00 00 00 00 00 00 00 00 00 ...  returns 0x00 (0012ms, 3362ms total)
T2790 027:384 JLINK_SetBPEx(Addr = 0x00001C30, Type = 0xFFFFFFF2)  returns 0x00000003 (0008ms, 3370ms total)
T2790 027:392 JLINK_Go() -- CPU_WriteMem(4 bytes @ 0xE0002008) -- CPU_WriteMem(4 bytes @ 0xE000200C) (0061ms, 3431ms total)
T2790 027:553 JLINK_IsHalted()  returns FALSE (0009ms, 3440ms total)
T2790 027:663 JLINK_IsHalted()  returns TRUE (0023ms, 3454ms total)
T2790 027:686 JLINK_Halt()  returns 0x00 (0000ms, 3431ms total)
T2790 027:686 JLINK_IsHalted()  returns TRUE (0000ms, 3431ms total)
T2790 027:686 JLINK_IsHalted()  returns TRUE (0000ms, 3431ms total)
T2790 027:686 JLINK_IsHalted()  returns TRUE (0000ms, 3431ms total)
T2790 027:686 JLINK_ReadReg(R15 (PC))  returns 0x00001C30 (0000ms, 3431ms total)
T2790 027:686 JLINK_ReadReg(XPSR)  returns 0x21000000 (0000ms, 3431ms total)
T2790 027:686 JLINK_ClrBPEx(BPHandle = 0x00000003)  returns 0x00 (0000ms, 3431ms total)
T2790 027:686 JLINK_ReadMemU32(0xE000ED30, 0x0001 Items, ...) -- CPU_ReadMem(4 bytes @ 0xE000ED30) - Data: 03 00 00 00  returns 0x01 (0012ms, 3443ms total)
T2790 027:698 JLINK_ReadMemU32(0xE0001028, 0x0001 Items, ...) -- CPU_ReadMem(4 bytes @ 0xE0001028) - Data: 00 00 00 00  returns 0x01 (0010ms, 3453ms total)
T2790 027:708 JLINK_ReadMemU32(0xE0001038, 0x0001 Items, ...) -- CPU_ReadMem(4 bytes @ 0xE0001038) - Data: 00 02 00 00  returns 0x01 (0016ms, 3469ms total)
T2790 027:725 JLINK_ReadMemU32(0xE0001048, 0x0001 Items, ...) -- CPU_ReadMem(4 bytes @ 0xE0001048) - Data: 00 00 00 00  returns 0x01 (0008ms, 3477ms total)
T2790 027:733 JLINK_ReadMemU32(0xE0001058, 0x0001 Items, ...) -- CPU_ReadMem(4 bytes @ 0xE0001058) - Data: 00 00 00 00  returns 0x01 (0010ms, 3487ms total)
T2790 027:743 JLINK_ReadReg(R0)  returns 0x00000001 (0000ms, 3487ms total)
T2790 027:743 JLINK_ReadReg(R1)  returns 0xE000ED04 (0000ms, 3487ms total)
T2790 027:743 JLINK_ReadReg(R2)  returns 0x00000001 (0000ms, 3487ms total)
T2790 027:743 JLINK_ReadReg(R3)  returns 0x00000001 (0001ms, 3488ms total)
T2790 027:744 JLINK_ReadReg(R4)  returns 0x04040404 (0000ms, 3488ms total)
T2790 027:744 JLINK_ReadReg(R5)  returns 0x05050505 (0000ms, 3488ms total)
T2790 027:744 JLINK_ReadReg(R6)  returns 0x06060606 (0000ms, 3488ms total)
T2790 027:744 JLINK_ReadReg(R7)  returns 0x07070707 (0000ms, 3488ms total)
T2790 027:744 JLINK_ReadReg(R8)  returns 0x08080808 (0000ms, 3488ms total)
T2790 027:744 JLINK_ReadReg(R9)  returns 0x09090909 (0000ms, 3488ms total)
T2790 027:744 JLINK_ReadReg(R10)  returns 0x10101010 (0000ms, 3488ms total)
T2790 027:744 JLINK_ReadReg(R11)  returns 0x11111111 (0000ms, 3488ms total)
T2790 027:744 JLINK_ReadReg(R12)  returns 0x04040404 (0000ms, 3488ms total)
T2790 027:744 JLINK_ReadReg(R13 (SP))  returns 0x1000D2D8 (0000ms, 3488ms total)
T2790 027:744 JLINK_ReadReg(R14)  returns 0x000084E5 (0000ms, 3488ms total)
T2790 027:744 JLINK_ReadReg(R15 (PC))  returns 0x00001C30 (0000ms, 3488ms total)
T2790 027:744 JLINK_ReadReg(XPSR)  returns 0x21000000 (0000ms, 3488ms total)
T2790 027:744 JLINK_ReadReg(MSP)  returns 0x1000E6C0 (0000ms, 3488ms total)
T2790 027:744 JLINK_ReadReg(PSP)  returns 0x1000D2D8 (0000ms, 3488ms total)
T2790 027:744 JLINK_ReadReg(CFBP)  returns 0x02000000 (0000ms, 3488ms total)
T133C 027:747 JLINK_ReadMem (0x1000D2DC, 0x0004 Bytes, ...) -- CPU_ReadMem(64 bytes @ 0x1000D2C0) -- Updating C cache (64 bytes @ 0x1000D2C0) -- Read from C cache (4 bytes @ 0x1000D2DC) - Data: 03 8F 00 00  returns 0x00 (0011ms, 3499ms total)
T133C 027:758 JLINK_ReadMem (0x1000D2D8, 0x0004 Bytes, ...) -- Read from C cache (4 bytes @ 0x1000D2D8) - Data: 04 04 04 04  returns 0x00 (0000ms, 3499ms total)
T133C 027:758 JLINK_ReadMem (0x1000D2EC, 0x0004 Bytes, ...) -- Read from C cache (4 bytes @ 0x1000D2EC) - Data: 25 58 00 00  returns 0x00 (0000ms, 3499ms total)
T133C 027:760 JLINK_ReadMem (0x1000D334, 0x0004 Bytes, ...) -- CPU_ReadMem(64 bytes @ 0x1000D300) -- Updating C cache (64 bytes @ 0x1000D300) -- Read from C cache (4 bytes @ 0x1000D334) - Data: 00 00 00 00  returns 0x00 (0008ms, 3507ms total)
T133C 027:881 JLINK_ReadMem (0x20098060, 0x0020 Bytes, ...) -- CPU_ReadMem(32 bytes @ 0x20098060) - Data: 00 00 C0 FF 00 00 00 00 00 00 00 00 00 00 00 00 ...  returns 0x00 (0013ms, 3520ms total)
T133C 032:853 JLINK_ReadMem (0x1000CBE1, 0x0004 Bytes, ...) -- CPU_ReadMem(64 bytes @ 0x1000CBC0) -- Updating C cache (64 bytes @ 0x1000CBC0) -- Read from C cache (4 bytes @ 0x1000CBE1) - Data: 00 00 00 00  returns 0x00 (0020ms, 3540ms total)
T133C 032:873 JLINK_ReadMem (0x1000CBE5, 0x0004 Bytes, ...) -- Read from C cache (4 bytes @ 0x1000CBE5) - Data: 00 00 00 00  returns 0x00 (0000ms, 3540ms total)
T133C 034:296 JLINK_ReadMem (0x00000005, 0x0004 Bytes, ...) -- CPU_ReadMem(4 bytes @ 0x400FC040) -- CPU_ReadMem(64 bytes @ 0x00000000) -- Updating C cache (64 bytes @ 0x00000000) -- Read from C cache (4 bytes @ 0x00000005) - Data: 1C 00 00 81  returns 0x00 (0031ms, 3571ms total)
T2790 045:429 JLINK_Step() -- CPU_ReadMem(64 bytes @ 0x00001C00) -- Updating C cache (64 bytes @ 0x00001C00) -- Read from C cache (2 bytes @ 0x00001C30) -- CPU_ReadMem(4 bytes @ 0xE0001004) -- Read from C cache (8 bytes @ 0x1000D2D8) -- Simulated  returns 0x00 (0041ms, 3612ms total)
T2790 045:470 JLINK_ReadReg(R15 (PC))  returns 0x00008F02 (0000ms, 3612ms total)
T2790 045:470 JLINK_ReadReg(XPSR)  returns 0x21000000 (0000ms, 3612ms total)
T2790 045:470 JLINK_SetBPEx(Addr = 0x00001C30, Type = 0xFFFFFFF2)  returns 0x00000004 (0000ms, 3612ms total)
T2790 045:470 JLINK_Go() -- CPU_WriteMem(4 bytes @ 0xE0001004) (0030ms, 3642ms total)
T2790 045:600 JLINK_IsHalted()  returns FALSE (0010ms, 3652ms total)
T2790 045:710 JLINK_IsHalted()  returns FALSE (0010ms, 3652ms total)
T2790 045:821 JLINK_IsHalted()  returns FALSE (0009ms, 3651ms total)
T2790 045:930 JLINK_IsHalted()  returns FALSE (0010ms, 3652ms total)
T2790 046:041 JLINK_ReadMemU32(0xE0001004, 0x0001 Items, ...) -- CPU is running -- CPU_ReadMem(4 bytes @ 0xE0001004) - Data: 71 82 46 05  returns 0x01 (0009ms, 3651ms total)
T133C 046:134 JLINK_ReadMem (0x1000CBE1, 0x0004 Bytes, ...) -- CPU is running -- CPU_ReadMem(4 bytes @ 0x1000CBE1) - Data: 00 00 00 00  returns 0x00 (0011ms, 3662ms total)
T133C 046:147 JLINK_ReadMem (0x1000CBE1, 0x0001 Bytes, ...) -- CPU is running -- CPU_ReadMem(1 bytes @ 0x1000CBE1) - Data: 00  returns 0x00 (0007ms, 3669ms total)
T133C 046:157 JLINK_ReadMem (0x1000CBE2, 0x0001 Bytes, ...) -- CPU is running -- CPU_ReadMem(1 bytes @ 0x1000CBE2) - Data: 00  returns 0x00 (0007ms, 3676ms total)
T133C 046:164 JLINK_ReadMem (0x1000CBE3, 0x0001 Bytes, ...) -- CPU is running -- CPU_ReadMem(1 bytes @ 0x1000CBE3) - Data: 00  returns 0x00 (0010ms, 3686ms total)
T133C 046:174 JLINK_ReadMem (0x1000CBE4, 0x0001 Bytes, ...) -- CPU is running -- CPU_ReadMem(1 bytes @ 0x1000CBE4) - Data: 00  returns 0x00 (0010ms, 3696ms total)
T133C 046:186 JLINK_ReadMem (0x1000CBE5, 0x0004 Bytes, ...) -- CPU is running -- CPU_ReadMem(4 bytes @ 0x1000CBE5) - Data: 00 00 00 00  returns 0x00 (0009ms, 3705ms total)
T2790 046:195 JLINK_IsHalted()  returns TRUE (0022ms, 3727ms total)
T2790 046:217 JLINK_Halt()  returns 0x00 (0000ms, 3705ms total)
T2790 046:217 JLINK_IsHalted()  returns TRUE (0000ms, 3705ms total)
T2790 046:217 JLINK_IsHalted()  returns TRUE (0000ms, 3705ms total)
T2790 046:217 JLINK_IsHalted()  returns TRUE (0000ms, 3705ms total)
T2790 046:217 JLINK_ReadReg(R15 (PC))  returns 0x00001C30 (0001ms, 3706ms total)
T2790 046:218 JLINK_ReadReg(XPSR)  returns 0x21000000 (0000ms, 3706ms total)
T2790 046:218 JLINK_ClrBPEx(BPHandle = 0x00000004)  returns 0x00 (0000ms, 3706ms total)
T2790 046:218 JLINK_ReadMemU32(0xE000ED30, 0x0001 Items, ...) -- CPU_ReadMem(4 bytes @ 0xE000ED30) - Data: 03 00 00 00  returns 0x01 (0011ms, 3717ms total)
T2790 046:229 JLINK_ReadMemU32(0xE0001028, 0x0001 Items, ...) -- CPU_ReadMem(4 bytes @ 0xE0001028) - Data: 00 00 00 00  returns 0x01 (0010ms, 3727ms total)
T2790 046:239 JLINK_ReadMemU32(0xE0001038, 0x0001 Items, ...) -- CPU_ReadMem(4 bytes @ 0xE0001038) - Data: 00 02 00 00  returns 0x01 (0010ms, 3737ms total)
T2790 046:249 JLINK_ReadMemU32(0xE0001048, 0x0001 Items, ...) -- CPU_ReadMem(4 bytes @ 0xE0001048) - Data: 00 00 00 00  returns 0x01 (0010ms, 3747ms total)
T2790 046:259 JLINK_ReadMemU32(0xE0001058, 0x0001 Items, ...) -- CPU_ReadMem(4 bytes @ 0xE0001058) - Data: 00 00 00 00  returns 0x01 (0010ms, 3757ms total)
T2790 046:269 JLINK_ReadReg(R0)  returns 0x00000001 (0000ms, 3757ms total)
T2790 046:269 JLINK_ReadReg(R1)  returns 0xE000ED04 (0000ms, 3757ms total)
T2790 046:269 JLINK_ReadReg(R2)  returns 0x00000001 (0000ms, 3757ms total)
T2790 046:269 JLINK_ReadReg(R3)  returns 0x00000001 (0000ms, 3757ms total)
T2790 046:269 JLINK_ReadReg(R4)  returns 0x04040404 (0000ms, 3757ms total)
T2790 046:269 JLINK_ReadReg(R5)  returns 0x05050505 (0000ms, 3757ms total)
T2790 046:269 JLINK_ReadReg(R6)  returns 0x06060606 (0000ms, 3757ms total)
T2790 046:269 JLINK_ReadReg(R7)  returns 0x07070707 (0000ms, 3757ms total)
T2790 046:269 JLINK_ReadReg(R8)  returns 0x08080808 (0001ms, 3758ms total)
T2790 046:270 JLINK_ReadReg(R9)  returns 0x09090909 (0000ms, 3758ms total)
T2790 046:270 JLINK_ReadReg(R10)  returns 0x10101010 (0000ms, 3758ms total)
T2790 046:270 JLINK_ReadReg(R11)  returns 0x11111111 (0000ms, 3758ms total)
T2790 046:270 JLINK_ReadReg(R12)  returns 0x04040404 (0000ms, 3758ms total)
T2790 046:270 JLINK_ReadReg(R13 (SP))  returns 0x1000D2D8 (0000ms, 3758ms total)
T2790 046:270 JLINK_ReadReg(R14)  returns 0x000084E5 (0000ms, 3758ms total)
T2790 046:270 JLINK_ReadReg(R15 (PC))  returns 0x00001C30 (0000ms, 3758ms total)
T2790 046:270 JLINK_ReadReg(XPSR)  returns 0x21000000 (0000ms, 3758ms total)
T2790 046:270 JLINK_ReadReg(MSP)  returns 0x1000E6C0 (0000ms, 3758ms total)
T2790 046:270 JLINK_ReadReg(PSP)  returns 0x1000D2D8 (0000ms, 3758ms total)
T2790 046:270 JLINK_ReadReg(CFBP)  returns 0x02000000 (0000ms, 3758ms total)
T133C 046:272 JLINK_ReadMem (0x1000D2DC, 0x0004 Bytes, ...) -- CPU_ReadMem(64 bytes @ 0x1000D2C0) -- Updating C cache (64 bytes @ 0x1000D2C0) -- Read from C cache (4 bytes @ 0x1000D2DC) - Data: 03 8F 00 00  returns 0x00 (0008ms, 3766ms total)
T133C 046:280 JLINK_ReadMem (0x1000D2D8, 0x0004 Bytes, ...) -- Read from C cache (4 bytes @ 0x1000D2D8) - Data: 04 04 04 04  returns 0x00 (0000ms, 3766ms total)
T133C 046:280 JLINK_ReadMem (0x1000D2EC, 0x0004 Bytes, ...) -- Read from C cache (4 bytes @ 0x1000D2EC) - Data: 25 58 00 00  returns 0x00 (0000ms, 3766ms total)
T133C 046:280 JLINK_ReadMem (0x1000D334, 0x0004 Bytes, ...) -- CPU_ReadMem(64 bytes @ 0x1000D300) -- Updating C cache (64 bytes @ 0x1000D300) -- Read from C cache (4 bytes @ 0x1000D334) - Data: 00 00 00 00  returns 0x00 (0019ms, 3785ms total)
T133C 046:371 JLINK_ReadMem (0x1000CBE1, 0x0004 Bytes, ...) -- CPU_ReadMem(64 bytes @ 0x1000CBC0) -- Updating C cache (64 bytes @ 0x1000CBC0) -- Read from C cache (4 bytes @ 0x1000CBE1) - Data: 00 00 00 00  returns 0x00 (0013ms, 3798ms total)
T133C 046:391 JLINK_ReadMem (0x1000CBE5, 0x0004 Bytes, ...) -- Read from C cache (4 bytes @ 0x1000CBE5) - Data: 00 00 00 00  returns 0x00 (0000ms, 3798ms total)
T133C 046:391 JLINK_ReadMem (0x20098060, 0x0020 Bytes, ...) -- CPU_ReadMem(32 bytes @ 0x20098060) - Data: 00 00 C0 FF 00 00 00 00 00 00 00 00 00 00 00 00 ...  returns 0x00 (0008ms, 3806ms total)
T2790 047:597 JLINK_Step() -- CPU_ReadMem(64 bytes @ 0x00001C00) -- Updating C cache (64 bytes @ 0x00001C00) -- Read from C cache (2 bytes @ 0x00001C30) -- CPU_ReadMem(4 bytes @ 0xE0001004) -- Read from C cache (8 bytes @ 0x1000D2D8) -- Simulated  returns 0x00 (0041ms, 3847ms total)
T2790 047:638 JLINK_ReadReg(R15 (PC))  returns 0x00008F02 (0000ms, 3847ms total)
T2790 047:638 JLINK_ReadReg(XPSR)  returns 0x21000000 (0000ms, 3847ms total)
T2790 047:638 JLINK_SetBPEx(Addr = 0x00001C30, Type = 0xFFFFFFF2)  returns 0x00000005 (0000ms, 3847ms total)
T2790 047:638 JLINK_Go() -- CPU_WriteMem(4 bytes @ 0xE0001004) (0040ms, 3887ms total)
T2790 047:779 JLINK_IsHalted()  returns FALSE (0009ms, 3896ms total)
T2790 047:888 JLINK_IsHalted()  returns FALSE (0010ms, 3897ms total)
T2790 047:999 JLINK_IsHalted()  returns FALSE (0009ms, 3896ms total)
T2790 048:109 JLINK_IsHalted()  returns FALSE (0009ms, 3896ms total)
T2790 048:218 JLINK_ReadMemU32(0xE0001004, 0x0001 Items, ...) -- CPU is running -- CPU_ReadMem(4 bytes @ 0xE0001004) - Data: C4 81 2C 09  returns 0x01 (0015ms, 3902ms total)
T133C 048:323 JLINK_ReadMem (0x1000CBE1, 0x0004 Bytes, ...) -- CPU is running -- CPU_ReadMem(4 bytes @ 0x1000CBE1) - Data: 00 00 00 B2  returns 0x00 (0010ms, 3912ms total)
T133C 048:333 JLINK_ReadMem (0x1000CBE1, 0x0001 Bytes, ...) -- CPU is running -- CPU_ReadMem(1 bytes @ 0x1000CBE1) - Data: 00  returns 0x00 (0010ms, 3922ms total)
T133C 048:343 JLINK_ReadMem (0x1000CBE2, 0x0001 Bytes, ...) -- CPU is running -- CPU_ReadMem(1 bytes @ 0x1000CBE2) - Data: 00  returns 0x00 (0010ms, 3932ms total)
T133C 048:353 JLINK_ReadMem (0x1000CBE3, 0x0001 Bytes, ...) -- CPU is running -- CPU_ReadMem(1 bytes @ 0x1000CBE3) - Data: 00  returns 0x00 (0017ms, 3949ms total)
T133C 048:370 JLINK_ReadMem (0x1000CBE4, 0x0001 Bytes, ...) -- CPU is running -- CPU_ReadMem(1 bytes @ 0x1000CBE4) - Data: B2  returns 0x00 (0008ms, 3957ms total)
T133C 048:380 JLINK_ReadMem (0x1000CBE5, 0x0004 Bytes, ...) -- CPU is running -- CPU_ReadMem(4 bytes @ 0x1000CBE5) - Data: 00 00 00 00  returns 0x00 (0009ms, 3966ms total)
T2790 048:390 JLINK_IsHalted()  returns TRUE (0022ms, 3988ms total)
T2790 048:412 JLINK_Halt()  returns 0x00 (0000ms, 3966ms total)
T2790 048:412 JLINK_IsHalted()  returns TRUE (0000ms, 3966ms total)
T2790 048:412 JLINK_IsHalted()  returns TRUE (0000ms, 3966ms total)
T2790 048:412 JLINK_IsHalted()  returns TRUE (0000ms, 3966ms total)
T2790 048:412 JLINK_ReadReg(R15 (PC))  returns 0x00001C30 (0000ms, 3966ms total)
T2790 048:412 JLINK_ReadReg(XPSR)  returns 0x21000000 (0000ms, 3966ms total)
T2790 048:412 JLINK_ClrBPEx(BPHandle = 0x00000005)  returns 0x00 (0000ms, 3966ms total)
T2790 048:412 JLINK_ReadMemU32(0xE000ED30, 0x0001 Items, ...) -- CPU_ReadMem(4 bytes @ 0xE000ED30) - Data: 03 00 00 00  returns 0x01 (0011ms, 3977ms total)
T2790 048:423 JLINK_ReadMemU32(0xE0001028, 0x0001 Items, ...) -- CPU_ReadMem(4 bytes @ 0xE0001028) - Data: 00 00 00 00  returns 0x01 (0010ms, 3987ms total)
T2790 048:433 JLINK_ReadMemU32(0xE0001038, 0x0001 Items, ...) -- CPU_ReadMem(4 bytes @ 0xE0001038) - Data: 00 02 00 00  returns 0x01 (0010ms, 3997ms total)
T2790 048:443 JLINK_ReadMemU32(0xE0001048, 0x0001 Items, ...) -- CPU_ReadMem(4 bytes @ 0xE0001048) - Data: 00 00 00 00  returns 0x01 (0011ms, 4008ms total)
T2790 048:454 JLINK_ReadMemU32(0xE0001058, 0x0001 Items, ...) -- CPU_ReadMem(4 bytes @ 0xE0001058) - Data: 00 00 00 00  returns 0x01 (0009ms, 4017ms total)
T2790 048:463 JLINK_ReadReg(R0)  returns 0x00000001 (0000ms, 4017ms total)
T2790 048:463 JLINK_ReadReg(R1)  returns 0x00000086 (0000ms, 4017ms total)
T2790 048:463 JLINK_ReadReg(R2)  returns 0x00000001 (0000ms, 4017ms total)
T2790 048:463 JLINK_ReadReg(R3)  returns 0x00000000 (0000ms, 4017ms total)
T2790 048:463 JLINK_ReadReg(R4)  returns 0x04040404 (0000ms, 4017ms total)
T2790 048:463 JLINK_ReadReg(R5)  returns 0x05050505 (0000ms, 4017ms total)
T2790 048:463 JLINK_ReadReg(R6)  returns 0x06060606 (0000ms, 4017ms total)
T2790 048:463 JLINK_ReadReg(R7)  returns 0x07070707 (0000ms, 4017ms total)
T2790 048:463 JLINK_ReadReg(R8)  returns 0x08080808 (0000ms, 4017ms total)
T2790 048:463 JLINK_ReadReg(R9)  returns 0x09090909 (0001ms, 4018ms total)
T2790 048:464 JLINK_ReadReg(R10)  returns 0x10101010 (0000ms, 4018ms total)
T2790 048:464 JLINK_ReadReg(R11)  returns 0x11111111 (0000ms, 4018ms total)
T2790 048:464 JLINK_ReadReg(R12)  returns 0x04040404 (0000ms, 4018ms total)
T2790 048:464 JLINK_ReadReg(R13 (SP))  returns 0x1000D2D8 (0000ms, 4018ms total)
T2790 048:464 JLINK_ReadReg(R14)  returns 0x000019D5 (0000ms, 4018ms total)
T2790 048:464 JLINK_ReadReg(R15 (PC))  returns 0x00001C30 (0000ms, 4018ms total)
T2790 048:464 JLINK_ReadReg(XPSR)  returns 0x21000000 (0000ms, 4018ms total)
T2790 048:464 JLINK_ReadReg(MSP)  returns 0x1000E6C0 (0000ms, 4018ms total)
T2790 048:464 JLINK_ReadReg(PSP)  returns 0x1000D2D8 (0000ms, 4018ms total)
T2790 048:464 JLINK_ReadReg(CFBP)  returns 0x02000000 (0000ms, 4018ms total)
T133C 048:476 JLINK_ReadMem (0x1000D2DC, 0x0004 Bytes, ...) -- CPU_ReadMem(64 bytes @ 0x1000D2C0) -- Updating C cache (64 bytes @ 0x1000D2C0) -- Read from C cache (4 bytes @ 0x1000D2DC) - Data: 03 8F 00 00  returns 0x00 (0008ms, 4026ms total)
T133C 048:484 JLINK_ReadMem (0x1000D2D8, 0x0004 Bytes, ...) -- Read from C cache (4 bytes @ 0x1000D2D8) - Data: 04 04 04 04  returns 0x00 (0000ms, 4026ms total)
T133C 048:484 JLINK_ReadMem (0x1000D2EC, 0x0004 Bytes, ...) -- Read from C cache (4 bytes @ 0x1000D2EC) - Data: 25 58 00 00  returns 0x00 (0000ms, 4026ms total)
T133C 048:485 JLINK_ReadMem (0x1000D304, 0x0004 Bytes, ...) -- CPU_ReadMem(64 bytes @ 0x1000D300) -- Updating C cache (64 bytes @ 0x1000D300) -- Read from C cache (4 bytes @ 0x1000D304) - Data: 00 00 00 00  returns 0x00 (0009ms, 4035ms total)
T133C 048:574 JLINK_ReadMem (0x1000CBE1, 0x0004 Bytes, ...) -- CPU_ReadMem(64 bytes @ 0x1000CBC0) -- Updating C cache (64 bytes @ 0x1000CBC0) -- Read from C cache (4 bytes @ 0x1000CBE1) - Data: 00 00 00 B2  returns 0x00 (0009ms, 4044ms total)
T133C 048:586 JLINK_ReadMem (0x1000CBE5, 0x0004 Bytes, ...) -- Read from C cache (4 bytes @ 0x1000CBE5) - Data: 00 00 00 00  returns 0x00 (0000ms, 4044ms total)
T133C 048:586 JLINK_ReadMem (0x20098060, 0x0020 Bytes, ...) -- CPU_ReadMem(32 bytes @ 0x20098060) - Data: 00 00 C0 FF 00 00 00 00 00 00 00 00 00 00 00 00 ...  returns 0x00 (0012ms, 4056ms total)
T2790 049:415 JLINK_Step() -- CPU_ReadMem(64 bytes @ 0x00001C00) -- Updating C cache (64 bytes @ 0x00001C00) -- Read from C cache (2 bytes @ 0x00001C30) -- CPU_ReadMem(4 bytes @ 0xE0001004) -- Read from C cache (8 bytes @ 0x1000D2D8) -- Simulated  returns 0x00 (0043ms, 4099ms total)
T2790 049:458 JLINK_ReadReg(R15 (PC))  returns 0x00008F02 (0000ms, 4099ms total)
T2790 049:458 JLINK_ReadReg(XPSR)  returns 0x21000000 (0000ms, 4099ms total)
T2790 049:458 JLINK_SetBPEx(Addr = 0x00001C30, Type = 0xFFFFFFF2)  returns 0x00000006 (0000ms, 4099ms total)
T2790 049:458 JLINK_Go() -- CPU_WriteMem(4 bytes @ 0xE0001004) (0054ms, 4153ms total)
T2790 049:613 JLINK_IsHalted()  returns FALSE (0009ms, 4162ms total)
T2790 049:722 JLINK_IsHalted()  returns FALSE (0010ms, 4163ms total)
T2790 049:833 JLINK_IsHalted()  returns FALSE (0009ms, 4162ms total)
T2790 049:943 JLINK_IsHalted()  returns FALSE (0010ms, 4163ms total)
T2790 050:053 JLINK_ReadMemU32(0xE0001004, 0x0001 Items, ...) -- CPU is running -- CPU_ReadMem(4 bytes @ 0xE0001004) - Data: 6B 27 EA 0C  returns 0x01 (0009ms, 4162ms total)
T133C 050:130 JLINK_ReadMem (0x1000CBE1, 0x0004 Bytes, ...) -- CPU is running -- CPU_ReadMem(4 bytes @ 0x1000CBE1) - Data: 00 00 00 B2  returns 0x00 (0008ms, 4170ms total)
T133C 050:138 JLINK_ReadMem (0x1000CBE1, 0x0001 Bytes, ...) -- CPU is running -- CPU_ReadMem(1 bytes @ 0x1000CBE1) - Data: 00  returns 0x00 (0009ms, 4179ms total)
T133C 050:147 JLINK_ReadMem (0x1000CBE2, 0x0001 Bytes, ...) -- CPU is running -- CPU_ReadMem(1 bytes @ 0x1000CBE2) - Data: 00  returns 0x00 (0011ms, 4190ms total)
T133C 050:158 JLINK_ReadMem (0x1000CBE3, 0x0001 Bytes, ...) -- CPU is running -- CPU_ReadMem(1 bytes @ 0x1000CBE3) - Data: 00  returns 0x00 (0009ms, 4199ms total)
T133C 050:167 JLINK_ReadMem (0x1000CBE4, 0x0001 Bytes, ...) -- CPU is running -- CPU_ReadMem(1 bytes @ 0x1000CBE4) - Data: B2  returns 0x00 (0011ms, 4210ms total)
T133C 050:178 JLINK_ReadMem (0x1000CBE5, 0x0004 Bytes, ...) -- CPU is running -- CPU_ReadMem(4 bytes @ 0x1000CBE5) - Data: 00 00 00 00  returns 0x00 (0010ms, 4220ms total)
T2790 050:188 JLINK_IsHalted()  returns TRUE (0022ms, 4242ms total)
T2790 050:210 JLINK_Halt()  returns 0x00 (0000ms, 4220ms total)
T2790 050:210 JLINK_IsHalted()  returns TRUE (0000ms, 4220ms total)
T2790 050:210 JLINK_IsHalted()  returns TRUE (0000ms, 4220ms total)
T2790 050:210 JLINK_IsHalted()  returns TRUE (0001ms, 4221ms total)
T2790 050:211 JLINK_ReadReg(R15 (PC))  returns 0x00001C30 (0000ms, 4220ms total)
T2790 050:211 JLINK_ReadReg(XPSR)  returns 0x21000000 (0000ms, 4220ms total)
T2790 050:211 JLINK_ClrBPEx(BPHandle = 0x00000006)  returns 0x00 (0000ms, 4220ms total)
T2790 050:211 JLINK_ReadMemU32(0xE000ED30, 0x0001 Items, ...) -- CPU_ReadMem(4 bytes @ 0xE000ED30) - Data: 03 00 00 00  returns 0x01 (0011ms, 4231ms total)
T2790 050:222 JLINK_ReadMemU32(0xE0001028, 0x0001 Items, ...) -- CPU_ReadMem(4 bytes @ 0xE0001028) - Data: 00 00 00 00  returns 0x01 (0011ms, 4242ms total)
T2790 050:233 JLINK_ReadMemU32(0xE0001038, 0x0001 Items, ...) -- CPU_ReadMem(4 bytes @ 0xE0001038) - Data: 00 02 00 00  returns 0x01 (0009ms, 4251ms total)
T2790 050:243 JLINK_ReadMemU32(0xE0001048, 0x0001 Items, ...) -- CPU_ReadMem(4 bytes @ 0xE0001048) - Data: 00 00 00 00  returns 0x01 (0009ms, 4261ms total)
T2790 050:252 JLINK_ReadMemU32(0xE0001058, 0x0001 Items, ...) -- CPU_ReadMem(4 bytes @ 0xE0001058) - Data: 00 00 00 00  returns 0x01 (0010ms, 4271ms total)
T2790 050:263 JLINK_ReadReg(R0)  returns 0x00000001 (0000ms, 4271ms total)
T2790 050:263 JLINK_ReadReg(R1)  returns 0x00000086 (0000ms, 4271ms total)
T2790 050:263 JLINK_ReadReg(R2)  returns 0x00000001 (0000ms, 4271ms total)
T2790 050:263 JLINK_ReadReg(R3)  returns 0x00000000 (0000ms, 4271ms total)
T2790 050:263 JLINK_ReadReg(R4)  returns 0x04040404 (0000ms, 4271ms total)
T2790 050:263 JLINK_ReadReg(R5)  returns 0x05050505 (0000ms, 4271ms total)
T2790 050:263 JLINK_ReadReg(R6)  returns 0x06060606 (0000ms, 4271ms total)
T2790 050:263 JLINK_ReadReg(R7)  returns 0x07070707 (0000ms, 4271ms total)
T2790 050:263 JLINK_ReadReg(R8)  returns 0x08080808 (0000ms, 4271ms total)
T2790 050:263 JLINK_ReadReg(R9)  returns 0x09090909 (0000ms, 4271ms total)
T2790 050:263 JLINK_ReadReg(R10)  returns 0x10101010 (0000ms, 4271ms total)
T2790 050:263 JLINK_ReadReg(R11)  returns 0x11111111 (0000ms, 4271ms total)
T2790 050:263 JLINK_ReadReg(R12)  returns 0x04040404 (0000ms, 4271ms total)
T2790 050:263 JLINK_ReadReg(R13 (SP))  returns 0x1000D2D8 (0001ms, 4272ms total)
T2790 050:264 JLINK_ReadReg(R14)  returns 0x000019D5 (0000ms, 4272ms total)
T2790 050:264 JLINK_ReadReg(R15 (PC))  returns 0x00001C30 (0000ms, 4272ms total)
T2790 050:264 JLINK_ReadReg(XPSR)  returns 0x21000000 (0000ms, 4272ms total)
T2790 050:264 JLINK_ReadReg(MSP)  returns 0x1000E6C0 (0000ms, 4272ms total)
T2790 050:264 JLINK_ReadReg(PSP)  returns 0x1000D2D8 (0000ms, 4272ms total)
T2790 050:264 JLINK_ReadReg(CFBP)  returns 0x02000000 (0000ms, 4272ms total)
T133C 050:266 JLINK_ReadMem (0x1000D2DC, 0x0004 Bytes, ...) -- CPU_ReadMem(64 bytes @ 0x1000D2C0) -- Updating C cache (64 bytes @ 0x1000D2C0) -- Read from C cache (4 bytes @ 0x1000D2DC) - Data: 03 8F 00 00  returns 0x00 (0012ms, 4284ms total)
T133C 050:278 JLINK_ReadMem (0x1000D2D8, 0x0004 Bytes, ...) -- Read from C cache (4 bytes @ 0x1000D2D8) - Data: 04 04 04 04  returns 0x00 (0000ms, 4284ms total)
T133C 050:278 JLINK_ReadMem (0x1000D2EC, 0x0004 Bytes, ...) -- Read from C cache (4 bytes @ 0x1000D2EC) - Data: 25 58 00 00  returns 0x00 (0000ms, 4284ms total)
T133C 050:278 JLINK_ReadMem (0x1000D304, 0x0004 Bytes, ...) -- CPU_ReadMem(64 bytes @ 0x1000D300) -- Updating C cache (64 bytes @ 0x1000D300) -- Read from C cache (4 bytes @ 0x1000D304) - Data: 00 00 00 00  returns 0x00 (0010ms, 4294ms total)
T133C 050:381 JLINK_ReadMem (0x1000CBE1, 0x0004 Bytes, ...) -- CPU_ReadMem(64 bytes @ 0x1000CBC0) -- Updating C cache (64 bytes @ 0x1000CBC0) -- Read from C cache (4 bytes @ 0x1000CBE1) - Data: 00 00 00 B2  returns 0x00 (0012ms, 4306ms total)
T133C 050:393 JLINK_ReadMem (0x1000CBE5, 0x0004 Bytes, ...) -- Read from C cache (4 bytes @ 0x1000CBE5) - Data: 00 00 00 00  returns 0x00 (0000ms, 4306ms total)
T133C 050:393 JLINK_ReadMem (0x20098060, 0x0020 Bytes, ...) -- CPU_ReadMem(32 bytes @ 0x20098060) - Data: 00 00 C0 FF 00 00 00 00 00 00 00 00 00 00 00 00 ...  returns 0x00 (0010ms, 4316ms total)
T2790 051:132 JLINK_Step() -- CPU_ReadMem(64 bytes @ 0x00001C00) -- Updating C cache (64 bytes @ 0x00001C00) -- Read from C cache (2 bytes @ 0x00001C30) -- CPU_ReadMem(4 bytes @ 0xE0001004) -- Read from C cache (8 bytes @ 0x1000D2D8) -- Simulated  returns 0x00 (0039ms, 4355ms total)
T2790 051:171 JLINK_ReadReg(R15 (PC))  returns 0x00008F02 (0000ms, 4355ms total)
T2790 051:171 JLINK_ReadReg(XPSR)  returns 0x21000000 (0000ms, 4355ms total)
T2790 051:171 JLINK_SetBPEx(Addr = 0x00001C30, Type = 0xFFFFFFF2)  returns 0x00000007 (0000ms, 4355ms total)
T2790 051:171 JLINK_Go() -- CPU_WriteMem(4 bytes @ 0xE0001004) (0040ms, 4395ms total)
T2790 051:312 JLINK_IsHalted()  returns FALSE (0009ms, 4404ms total)
T2790 051:421 JLINK_IsHalted()  returns FALSE (0010ms, 4405ms total)
T2790 051:532 JLINK_IsHalted()  returns FALSE (0010ms, 4405ms total)
T2790 051:642 JLINK_IsHalted()  returns FALSE (0009ms, 4404ms total)
T2790 051:751 JLINK_ReadMemU32(0xE0001004, 0x0001 Items, ...) -- CPU is running -- CPU_ReadMem(4 bytes @ 0xE0001004) - Data: CC CB A7 10  returns 0x01 (0011ms, 4406ms total)
T133C 051:854 JLINK_ReadMem (0x1000CBE1, 0x0004 Bytes, ...) -- CPU is running -- CPU_ReadMem(4 bytes @ 0x1000CBE1) - Data: 00 00 00 B1  returns 0x00 (0008ms, 4414ms total)
T133C 051:862 JLINK_ReadMem (0x1000CBE1, 0x0001 Bytes, ...) -- CPU is running -- CPU_ReadMem(1 bytes @ 0x1000CBE1) - Data: 00  returns 0x00 (0010ms, 4424ms total)
T133C 051:872 JLINK_ReadMem (0x1000CBE2, 0x0001 Bytes, ...) -- CPU is running -- CPU_ReadMem(1 bytes @ 0x1000CBE2) - Data: 00  returns 0x00 (0009ms, 4433ms total)
T133C 051:881 JLINK_ReadMem (0x1000CBE3, 0x0001 Bytes, ...) -- CPU is running -- CPU_ReadMem(1 bytes @ 0x1000CBE3) - Data: 00  returns 0x00 (0010ms, 4443ms total)
T133C 051:891 JLINK_ReadMem (0x1000CBE4, 0x0001 Bytes, ...) -- CPU is running -- CPU_ReadMem(1 bytes @ 0x1000CBE4) - Data: B1  returns 0x00 (0010ms, 4453ms total)
T133C 051:904 JLINK_ReadMem (0x1000CBE5, 0x0004 Bytes, ...) -- CPU is running -- CPU_ReadMem(4 bytes @ 0x1000CBE5) - Data: 00 00 00 00  returns 0x00 (0008ms, 4461ms total)
T2790 051:913 JLINK_IsHalted()  returns TRUE (0022ms, 4484ms total)
T2790 051:935 JLINK_Halt()  returns 0x00 (0000ms, 4462ms total)
T2790 051:935 JLINK_IsHalted()  returns TRUE (0000ms, 4462ms total)
T2790 051:935 JLINK_IsHalted()  returns TRUE (0000ms, 4462ms total)
T2790 051:935 JLINK_IsHalted()  returns TRUE (0000ms, 4462ms total)
T2790 051:935 JLINK_ReadReg(R15 (PC))  returns 0x00001C30 (0001ms, 4463ms total)
T2790 051:936 JLINK_ReadReg(XPSR)  returns 0x21000000 (0000ms, 4463ms total)
T2790 051:936 JLINK_ClrBPEx(BPHandle = 0x00000007)  returns 0x00 (0000ms, 4463ms total)
T2790 051:936 JLINK_ReadMemU32(0xE000ED30, 0x0001 Items, ...) -- CPU_ReadMem(4 bytes @ 0xE000ED30) - Data: 03 00 00 00  returns 0x01 (0010ms, 4473ms total)
T2790 051:946 JLINK_ReadMemU32(0xE0001028, 0x0001 Items, ...) -- CPU_ReadMem(4 bytes @ 0xE0001028) - Data: 00 00 00 00  returns 0x01 (0011ms, 4484ms total)
T2790 051:957 JLINK_ReadMemU32(0xE0001038, 0x0001 Items, ...) -- CPU_ReadMem(4 bytes @ 0xE0001038) - Data: 00 02 00 00  returns 0x01 (0009ms, 4493ms total)
T2790 051:966 JLINK_ReadMemU32(0xE0001048, 0x0001 Items, ...) -- CPU_ReadMem(4 bytes @ 0xE0001048) - Data: 00 00 00 00  returns 0x01 (0010ms, 4503ms total)
T2790 051:976 JLINK_ReadMemU32(0xE0001058, 0x0001 Items, ...) -- CPU_ReadMem(4 bytes @ 0xE0001058) - Data: 00 00 00 00  returns 0x01 (0011ms, 4514ms total)
T2790 051:987 JLINK_ReadReg(R0)  returns 0x00000001 (0000ms, 4514ms total)
T2790 051:987 JLINK_ReadReg(R1)  returns 0x00000087 (0000ms, 4514ms total)
T2790 051:987 JLINK_ReadReg(R2)  returns 0x00000001 (0000ms, 4514ms total)
T2790 051:987 JLINK_ReadReg(R3)  returns 0x00000000 (0000ms, 4514ms total)
T2790 051:987 JLINK_ReadReg(R4)  returns 0x04040404 (0000ms, 4514ms total)
T2790 051:987 JLINK_ReadReg(R5)  returns 0x05050505 (0000ms, 4514ms total)
T2790 051:987 JLINK_ReadReg(R6)  returns 0x06060606 (0000ms, 4514ms total)
T2790 051:987 JLINK_ReadReg(R7)  returns 0x07070707 (0000ms, 4514ms total)
T2790 051:987 JLINK_ReadReg(R8)  returns 0x08080808 (0000ms, 4514ms total)
T2790 051:987 JLINK_ReadReg(R9)  returns 0x09090909 (0000ms, 4514ms total)
T2790 051:987 JLINK_ReadReg(R10)  returns 0x10101010 (0000ms, 4514ms total)
T2790 051:987 JLINK_ReadReg(R11)  returns 0x11111111 (0000ms, 4514ms total)
T2790 051:987 JLINK_ReadReg(R12)  returns 0x04040404 (0000ms, 4514ms total)
T2790 051:987 JLINK_ReadReg(R13 (SP))  returns 0x1000D2D8 (0001ms, 4515ms total)
T2790 051:988 JLINK_ReadReg(R14)  returns 0x000019D5 (0000ms, 4515ms total)
T2790 051:988 JLINK_ReadReg(R15 (PC))  returns 0x00001C30 (0000ms, 4515ms total)
T2790 051:988 JLINK_ReadReg(XPSR)  returns 0x21000000 (0000ms, 4515ms total)
T2790 051:988 JLINK_ReadReg(MSP)  returns 0x1000E6C0 (0000ms, 4515ms total)
T2790 051:988 JLINK_ReadReg(PSP)  returns 0x1000D2D8 (0000ms, 4515ms total)
T2790 051:988 JLINK_ReadReg(CFBP)  returns 0x02000000 (0000ms, 4515ms total)
T133C 051:989 JLINK_ReadMem (0x1000D2DC, 0x0004 Bytes, ...) -- CPU_ReadMem(64 bytes @ 0x1000D2C0) -- Updating C cache (64 bytes @ 0x1000D2C0) -- Read from C cache (4 bytes @ 0x1000D2DC) - Data: 03 8F 00 00  returns 0x00 (0008ms, 4523ms total)
T133C 051:997 JLINK_ReadMem (0x1000D2D8, 0x0004 Bytes, ...) -- Read from C cache (4 bytes @ 0x1000D2D8) - Data: 04 04 04 04  returns 0x00 (0000ms, 4523ms total)
T133C 051:997 JLINK_ReadMem (0x1000D2EC, 0x0004 Bytes, ...) -- Read from C cache (4 bytes @ 0x1000D2EC) - Data: 25 58 00 00  returns 0x00 (0000ms, 4523ms total)
T133C 051:998 JLINK_ReadMem (0x1000D304, 0x0004 Bytes, ...) -- CPU_ReadMem(64 bytes @ 0x1000D300) -- Updating C cache (64 bytes @ 0x1000D300) -- Read from C cache (4 bytes @ 0x1000D304) - Data: 00 00 00 00  returns 0x00 (0009ms, 4533ms total)
T133C 052:084 JLINK_ReadMem (0x1000CBE1, 0x0004 Bytes, ...) -- CPU_ReadMem(64 bytes @ 0x1000CBC0) -- Updating C cache (64 bytes @ 0x1000CBC0) -- Read from C cache (4 bytes @ 0x1000CBE1) - Data: 00 00 00 B1  returns 0x00 (0022ms, 4555ms total)
T133C 052:109 JLINK_ReadMem (0x1000CBE5, 0x0004 Bytes, ...) -- Read from C cache (4 bytes @ 0x1000CBE5) - Data: 00 00 00 00  returns 0x00 (0000ms, 4555ms total)
T133C 052:109 JLINK_ReadMem (0x20098060, 0x0020 Bytes, ...) -- CPU_ReadMem(32 bytes @ 0x20098060) - Data: 00 00 C0 FF 00 00 00 00 00 00 00 00 00 00 00 00 ...  returns 0x00 (0009ms, 4564ms total)
T2790 052:855 JLINK_Step() -- CPU_ReadMem(64 bytes @ 0x00001C00) -- Updating C cache (64 bytes @ 0x00001C00) -- Read from C cache (2 bytes @ 0x00001C30) -- CPU_ReadMem(4 bytes @ 0xE0001004) -- Read from C cache (8 bytes @ 0x1000D2D8) -- Simulated  returns 0x00 (0040ms, 4604ms total)
T2790 052:895 JLINK_ReadReg(R15 (PC))  returns 0x00008F02 (0000ms, 4604ms total)
T2790 052:895 JLINK_ReadReg(XPSR)  returns 0x21000000 (0001ms, 4605ms total)
T2790 052:896 JLINK_SetBPEx(Addr = 0x00001C30, Type = 0xFFFFFFF2)  returns 0x00000008 (0000ms, 4605ms total)
T2790 052:896 JLINK_Go() -- CPU_WriteMem(4 bytes @ 0xE0001004) (0029ms, 4634ms total)
T2790 053:026 JLINK_IsHalted()  returns FALSE (0010ms, 4644ms total)
T2790 053:136 JLINK_IsHalted()  returns FALSE (0009ms, 4643ms total)
T2790 053:246 JLINK_IsHalted()  returns FALSE (0009ms, 4643ms total)
T2790 053:356 JLINK_IsHalted()  returns FALSE (0015ms, 4649ms total)
T2790 053:471 JLINK_ReadMemU32(0xE0001004, 0x0001 Items, ...) -- CPU is running -- CPU_ReadMem(4 bytes @ 0xE0001004) - Data: CB 6C 65 14  returns 0x01 (0009ms, 4643ms total)
T133C 053:578 JLINK_ReadMem (0x1000CBE1, 0x0004 Bytes, ...) -- CPU is running -- CPU_ReadMem(4 bytes @ 0x1000CBE1) - Data: 00 00 00 B2  returns 0x00 (0014ms, 4657ms total)
T133C 053:592 JLINK_ReadMem (0x1000CBE1, 0x0001 Bytes, ...) -- CPU is running -- CPU_ReadMem(1 bytes @ 0x1000CBE1) - Data: 00  returns 0x00 (0008ms, 4665ms total)
T133C 053:600 JLINK_ReadMem (0x1000CBE2, 0x0001 Bytes, ...) -- CPU is running -- CPU_ReadMem(1 bytes @ 0x1000CBE2) - Data: 00  returns 0x00 (0011ms, 4676ms total)
T133C 053:611 JLINK_ReadMem (0x1000CBE3, 0x0001 Bytes, ...) -- CPU is running -- CPU_ReadMem(1 bytes @ 0x1000CBE3) - Data: 00  returns 0x00 (0010ms, 4686ms total)
T133C 053:621 JLINK_ReadMem (0x1000CBE4, 0x0001 Bytes, ...) -- CPU is running -- CPU_ReadMem(1 bytes @ 0x1000CBE4) - Data: B2  returns 0x00 (0008ms, 4694ms total)
T133C 053:631 JLINK_ReadMem (0x1000CBE5, 0x0004 Bytes, ...) -- CPU is running -- CPU_ReadMem(4 bytes @ 0x1000CBE5) - Data: 00 00 00 00  returns 0x00 (0009ms, 4703ms total)
T2790 053:641 JLINK_IsHalted()  returns TRUE (0022ms, 4725ms total)
T2790 053:663 JLINK_Halt()  returns 0x00 (0000ms, 4703ms total)
T2790 053:663 JLINK_IsHalted()  returns TRUE (0000ms, 4703ms total)
T2790 053:663 JLINK_IsHalted()  returns TRUE (0000ms, 4703ms total)
T2790 053:663 JLINK_IsHalted()  returns TRUE (0000ms, 4703ms total)
T2790 053:663 JLINK_ReadReg(R15 (PC))  returns 0x00001C30 (0001ms, 4704ms total)
T2790 053:664 JLINK_ReadReg(XPSR)  returns 0x21000000 (0000ms, 4704ms total)
T2790 053:664 JLINK_ClrBPEx(BPHandle = 0x00000008)  returns 0x00 (0000ms, 4704ms total)
T2790 053:664 JLINK_ReadMemU32(0xE000ED30, 0x0001 Items, ...) -- CPU_ReadMem(4 bytes @ 0xE000ED30) - Data: 03 00 00 00  returns 0x01 (0010ms, 4714ms total)
T2790 053:674 JLINK_ReadMemU32(0xE0001028, 0x0001 Items, ...) -- CPU_ReadMem(4 bytes @ 0xE0001028) - Data: 00 00 00 00  returns 0x01 (0010ms, 4724ms total)
T2790 053:684 JLINK_ReadMemU32(0xE0001038, 0x0001 Items, ...) -- CPU_ReadMem(4 bytes @ 0xE0001038) - Data: 00 02 00 00  returns 0x01 (0011ms, 4735ms total)
T2790 053:695 JLINK_ReadMemU32(0xE0001048, 0x0001 Items, ...) -- CPU_ReadMem(4 bytes @ 0xE0001048) - Data: 00 00 00 00  returns 0x01 (0017ms, 4752ms total)
T2790 053:712 JLINK_ReadMemU32(0xE0001058, 0x0001 Items, ...) -- CPU_ReadMem(4 bytes @ 0xE0001058) - Data: 00 00 00 00  returns 0x01 (0007ms, 4759ms total)
T2790 053:719 JLINK_ReadReg(R0)  returns 0x00000001 (0000ms, 4759ms total)
T2790 053:720 JLINK_ReadReg(R1)  returns 0x00000086 (0000ms, 4760ms total)
T2790 053:720 JLINK_ReadReg(R2)  returns 0x00000001 (0000ms, 4760ms total)
T2790 053:720 JLINK_ReadReg(R3)  returns 0x00000000 (0000ms, 4760ms total)
T2790 053:720 JLINK_ReadReg(R4)  returns 0x04040404 (0000ms, 4760ms total)
T2790 053:720 JLINK_ReadReg(R5)  returns 0x05050505 (0000ms, 4760ms total)
T2790 053:720 JLINK_ReadReg(R6)  returns 0x06060606 (0000ms, 4760ms total)
T2790 053:720 JLINK_ReadReg(R7)  returns 0x07070707 (0000ms, 4760ms total)
T2790 053:720 JLINK_ReadReg(R8)  returns 0x08080808 (0000ms, 4760ms total)
T2790 053:720 JLINK_ReadReg(R9)  returns 0x09090909 (0000ms, 4760ms total)
T2790 053:720 JLINK_ReadReg(R10)  returns 0x10101010 (0000ms, 4760ms total)
T2790 053:720 JLINK_ReadReg(R11)  returns 0x11111111 (0000ms, 4760ms total)
T2790 053:720 JLINK_ReadReg(R12)  returns 0x04040404 (0000ms, 4760ms total)
T2790 053:720 JLINK_ReadReg(R13 (SP))  returns 0x1000D2D8 (0001ms, 4761ms total)
T2790 053:721 JLINK_ReadReg(R14)  returns 0x000019D5 (0000ms, 4761ms total)
T2790 053:721 JLINK_ReadReg(R15 (PC))  returns 0x00001C30 (0000ms, 4761ms total)
T2790 053:721 JLINK_ReadReg(XPSR)  returns 0x21000000 (0000ms, 4761ms total)
